1



                                 *********************************************

                                    NUMERICAL ELECTROMAGNETICS CODE (NEC-2D)

                                 *********************************************




                                     - - - - COMMENTS - - - -


                          Moxon rectangle by equation as descibed by                                 
                          L.B. Cebik in www.cebik.com/moxon/moxgen.html                              
                          Comparison with model created using MoxGen                                 
                          (www.qsl.net/ac6la/) yields equal results.                                 
                                                                                                     




                                 - - - STRUCTURE SPECIFICATION - - -

                                     COORDINATES MUST BE INPUT IN
                                     METERS OR BE SCALED TO METERS
                                     BEFORE STRUCTURE INPUT IS ENDED


  WIRE                                                                               NO. OF    FIRST  LAST     TAG
  NO.        X1         Y1         Z1          X2         Y2         Z2      RADIUS   SEG.     SEG.   SEG.     NO.
     1    2.55840   -7.72264   20.00000     2.55840    7.72264   20.00000    0.00050     35        1    35       1
     2    0.16848   -7.72264   20.00000     2.55840   -7.72264   20.00000    0.00050      5       36    40       2
     3    2.55840    7.72264   20.00000     0.16848    7.72264   20.00000    0.00050      5       41    45       3
     4   -3.00427   -7.72264   20.00000    -3.00427    7.72264   20.00000    0.00050     35       46    80       4
     5   -0.16848   -7.72264   20.00000    -3.00427   -7.72264   20.00000    0.00050      7       81    87       5
     6   -3.00427    7.72264   20.00000    -0.16848    7.72264   20.00000    0.00050      7       88    94       6

   TOTAL SEGMENTS USED=   94     NO. SEG. IN A SYMMETRIC CELL=   94     SYMMETRY FLAG=  0


         - MULTIPLE WIRE JUNCTIONS -
 JUNCTION    SEGMENTS  (- FOR END 1, + FOR END 2)
  NONE




                                 - - - - SEGMENTATION DATA - - - -

                                        COORDINATES IN METERS

                         I+ AND I- INDICATE THE SEGMENTS BEFORE AND AFTER I


  SEG.   COORDINATES OF SEG. CENTER     SEG.     ORIENTATION ANGLES    WIRE    CONNECTION DATA   TAG
  NO.       X         Y         Z       LENGTH     ALPHA     BETA      RADIUS    I-   I    I+    NO.
     1   2.55840  -7.50199  20.00000   0.44129    0.00000  90.00000   0.00050    40    1    2      1
     2   2.55840  -7.06070  20.00000   0.44129    0.00000  90.00000   0.00050     1    2    3      1
     3   2.55840  -6.61940  20.00000   0.44129    0.00000  90.00000   0.00050     2    3    4      1
     4   2.55840  -6.17811  20.00000   0.44129    0.00000  90.00000   0.00050     3    4    5      1
     5   2.55840  -5.73682  20.00000   0.44129    0.00000  90.00000   0.00050     4    5    6      1
     6   2.55840  -5.29552  20.00000   0.44129    0.00000  90.00000   0.00050     5    6    7      1
     7   2.55840  -4.85423  20.00000   0.44129    0.00000  90.00000   0.00050     6    7    8      1
     8   2.55840  -4.41293  20.00000   0.44129    0.00000  90.00000   0.00050     7    8    9      1
     9   2.55840  -3.97164  20.00000   0.44129    0.00000  90.00000   0.00050     8    9   10      1
    10   2.55840  -3.53035  20.00000   0.44129    0.00000  90.00000   0.00050     9   10   11      1
    11   2.55840  -3.08905  20.00000   0.44129    0.00000  90.00000   0.00050    10   11   12      1
    12   2.55840  -2.64776  20.00000   0.44129    0.00000  90.00000   0.00050    11   12   13      1
    13   2.55840  -2.20647  20.00000   0.44129    0.00000  90.00000   0.00050    12   13   14      1
    14   2.55840  -1.76517  20.00000   0.44129    0.00000  90.00000   0.00050    13   14   15      1
    15   2.55840  -1.32388  20.00000   0.44129    0.00000  90.00000   0.00050    14   15   16      1
    16   2.55840  -0.88259  20.00000   0.44129    0.00000  90.00000   0.00050    15   16   17      1
    17   2.55840  -0.44129  20.00000   0.44129    0.00000  90.00000   0.00050    16   17   18      1
    18   2.55840   0.00000  20.00000   0.44129    0.00000  90.00000   0.00050    17   18   19      1
    19   2.55840   0.44129  20.00000   0.44129    0.00000  90.00000   0.00050    18   19   20      1
    20   2.55840   0.88259  20.00000   0.44129    0.00000  90.00000   0.00050    19   20   21      1
    21   2.55840   1.32388  20.00000   0.44129    0.00000  90.00000   0.00050    20   21   22      1
    22   2.55840   1.76517  20.00000   0.44129    0.00000  90.00000   0.00050    21   22   23      1
    23   2.55840   2.20647  20.00000   0.44129    0.00000  90.00000   0.00050    22   23   24      1
    24   2.55840   2.64776  20.00000   0.44129    0.00000  90.00000   0.00050    23   24   25      1
    25   2.55840   3.08905  20.00000   0.44129    0.00000  90.00000   0.00050    24   25   26      1
    26   2.55840   3.53035  20.00000   0.44129    0.00000  90.00000   0.00050    25   26   27      1
    27   2.55840   3.97164  20.00000   0.44129    0.00000  90.00000   0.00050    26   27   28      1
    28   2.55840   4.41293  20.00000   0.44129    0.00000  90.00000   0.00050    27   28   29      1
    29   2.55840   4.85423  20.00000   0.44129    0.00000  90.00000   0.00050    28   29   30      1
    30   2.55840   5.29552  20.00000   0.44129    0.00000  90.00000   0.00050    29   30   31      1
    31   2.55840   5.73682  20.00000   0.44129    0.00000  90.00000   0.00050    30   31   32      1
    32   2.55840   6.17811  20.00000   0.44129    0.00000  90.00000   0.00050    31   32   33      1
    33   2.55840   6.61940  20.00000   0.44129    0.00000  90.00000   0.00050    32   33   34      1
    34   2.55840   7.06070  20.00000   0.44129    0.00000  90.00000   0.00050    33   34   35      1
    35   2.55840   7.50199  20.00000   0.44129    0.00000  90.00000   0.00050    34   35   41      1
    36   0.40747  -7.72264  20.00000   0.47799    0.00000   0.00000   0.00050     0   36   37      2
    37   0.88545  -7.72264  20.00000   0.47799    0.00000   0.00000   0.00050    36   37   38      2
    38   1.36344  -7.72264  20.00000   0.47799    0.00000   0.00000   0.00050    37   38   39      2
    39   1.84142  -7.72264  20.00000   0.47799    0.00000   0.00000   0.00050    38   39   40      2
    40   2.31941  -7.72264  20.00000   0.47799    0.00000   0.00000   0.00050    39   40    1      2
    41   2.31941   7.72264  20.00000   0.47799    0.00000 180.00000   0.00050    35   41   42      3
    42   1.84142   7.72264  20.00000   0.47799    0.00000 180.00000   0.00050    41   42   43      3
    43   1.36344   7.72264  20.00000   0.47799    0.00000 180.00000   0.00050    42   43   44      3
    44   0.88545   7.72264  20.00000   0.47799    0.00000 180.00000   0.00050    43   44   45      3
    45   0.40747   7.72264  20.00000   0.47799    0.00000 180.00000   0.00050    44   45    0      3
    46  -3.00427  -7.50199  20.00000   0.44129    0.00000  90.00000   0.00050    87   46   47      4
    47  -3.00427  -7.06070  20.00000   0.44129    0.00000  90.00000   0.00050    46   47   48      4
    48  -3.00427  -6.61940  20.00000   0.44129    0.00000  90.00000   0.00050    47   48   49      4
    49  -3.00427  -6.17811  20.00000   0.44129    0.00000  90.00000   0.00050    48   49   50      4
    50  -3.00427  -5.73682  20.00000   0.44129    0.00000  90.00000   0.00050    49   50   51      4
    51  -3.00427  -5.29552  20.00000   0.44129    0.00000  90.00000   0.00050    50   51   52      4
    52  -3.00427  -4.85423  20.00000   0.44129    0.00000  90.00000   0.00050    51   52   53      4
    53  -3.00427  -4.41293  20.00000   0.44129    0.00000  90.00000   0.00050    52   53   54      4
    54  -3.00427  -3.97164  20.00000   0.44129    0.00000  90.00000   0.00050    53   54   55      4
    55  -3.00427  -3.53035  20.00000   0.44129    0.00000  90.00000   0.00050    54   55   56      4
    56  -3.00427  -3.08905  20.00000   0.44129    0.00000  90.00000   0.00050    55   56   57      4
    57  -3.00427  -2.64776  20.00000   0.44129    0.00000  90.00000   0.00050    56   57   58      4
    58  -3.00427  -2.20647  20.00000   0.44129    0.00000  90.00000   0.00050    57   58   59      4
    59  -3.00427  -1.76517  20.00000   0.44129    0.00000  90.00000   0.00050    58   59   60      4
    60  -3.00427  -1.32388  20.00000   0.44129    0.00000  90.00000   0.00050    59   60   61      4
    61  -3.00427  -0.88259  20.00000   0.44129    0.00000  90.00000   0.00050    60   61   62      4
    62  -3.00427  -0.44129  20.00000   0.44129    0.00000  90.00000   0.00050    61   62   63      4
    63  -3.00427   0.00000  20.00000   0.44129    0.00000  90.00000   0.00050    62   63   64      4
    64  -3.00427   0.44129  20.00000   0.44129    0.00000  90.00000   0.00050    63   64   65      4
    65  -3.00427   0.88259  20.00000   0.44129    0.00000  90.00000   0.00050    64   65   66      4
    66  -3.00427   1.32388  20.00000   0.44129    0.00000  90.00000   0.00050    65   66   67      4
    67  -3.00427   1.76517  20.00000   0.44129    0.00000  90.00000   0.00050    66   67   68      4
    68  -3.00427   2.20647  20.00000   0.44129    0.00000  90.00000   0.00050    67   68   69      4
    69  -3.00427   2.64776  20.00000   0.44129    0.00000  90.00000   0.00050    68   69   70      4
    70  -3.00427   3.08905  20.00000   0.44129    0.00000  90.00000   0.00050    69   70   71      4
    71  -3.00427   3.53035  20.00000   0.44129    0.00000  90.00000   0.00050    70   71   72      4
    72  -3.00427   3.97164  20.00000   0.44129    0.00000  90.00000   0.00050    71   72   73      4
    73  -3.00427   4.41293  20.00000   0.44129    0.00000  90.00000   0.00050    72   73   74      4
    74  -3.00427   4.85423  20.00000   0.44129    0.00000  90.00000   0.00050    73   74   75      4
    75  -3.00427   5.29552  20.00000   0.44129    0.00000  90.00000   0.00050    74   75   76      4
    76  -3.00427   5.73682  20.00000   0.44129    0.00000  90.00000   0.00050    75   76   77      4
    77  -3.00427   6.17811  20.00000   0.44129    0.00000  90.00000   0.00050    76   77   78      4
    78  -3.00427   6.61940  20.00000   0.44129    0.00000  90.00000   0.00050    77   78   79      4
    79  -3.00427   7.06070  20.00000   0.44129    0.00000  90.00000   0.00050    78   79   80      4
    80  -3.00427   7.50199  20.00000   0.44129    0.00000  90.00000   0.00050    79   80   88      4
    81  -0.37103  -7.72264  20.00000   0.40511    0.00000 180.00000   0.00050     0   81   82      5
    82  -0.77615  -7.72264  20.00000   0.40511    0.00000 180.00000   0.00050    81   82   83      5
    83  -1.18126  -7.72264  20.00000   0.40511    0.00000 180.00000   0.00050    82   83   84      5
    84  -1.58637  -7.72264  20.00000   0.40511    0.00000 180.00000   0.00050    83   84   85      5
    85  -1.99148  -7.72264  20.00000   0.40511    0.00000 180.00000   0.00050    84   85   86      5
    86  -2.39660  -7.72264  20.00000   0.40511    0.00000 180.00000   0.00050    85   86   87      5
    87  -2.80171  -7.72264  20.00000   0.40511    0.00000 180.00000   0.00050    86   87   46      5
    88  -2.80171   7.72264  20.00000   0.40511    0.00000   0.00000   0.00050    80   88   89      6
    89  -2.39660   7.72264  20.00000   0.40511    0.00000   0.00000   0.00050    88   89   90      6
    90  -1.99148   7.72264  20.00000   0.40511    0.00000   0.00000   0.00050    89   90   91      6
    91  -1.58637   7.72264  20.00000   0.40511    0.00000   0.00000   0.00050    90   91   92      6
    92  -1.18126   7.72264  20.00000   0.40511    0.00000   0.00000   0.00050    91   92   93      6
    93  -0.77615   7.72264  20.00000   0.40511    0.00000   0.00000   0.00050    92   93   94      6
    94  -0.37103   7.72264  20.00000   0.40511    0.00000   0.00000   0.00050    93   94    0      6






 ***** DATA CARD NO.  1   FR   0     1     0     0  7.10000E+00  0.00000E+00  0.00000E+00  0.00000E+00  0.00000E+00  0.00000E+00
 ***** DATA CARD NO.  2   GN   2     0     0     0  1.30000E+01  5.00000E-03  0.00000E+00  0.00000E+00  0.00000E+00  0.00000E+00
 ***** DATA CARD NO.  3   EX   0     1    18     1  0.00000E+00  0.00000E+00  0.00000E+00  0.00000E+00  0.00000E+00  0.00000E+00
 ***** DATA CARD NO.  4   RP   0    19    73  1003 -9.00000E+01  0.00000E+00  5.00000E+00  5.00000E+00  0.00000E+00  0.00000E+00




                                 - - - - - - FREQUENCY - - - - - -

                                    FREQUENCY= 7.1000E+00 MHZ
                                    WAVELENGTH= 4.2225E+01 METERS




                    APPROXIMATE INTEGRATION EMPLOYED FOR SEGMENTS MORE THAN   1.000 WAVELENGTHS APART



                               - - - STRUCTURE IMPEDANCE LOADING - - -

                                   THIS STRUCTURE IS NOT LOADED



                                  - - - ANTENNA ENVIRONMENT - - -

                                        FINITE GROUND.  SOMMERFELD SOLUTION
                                        RELATIVE DIELECTRIC CONST.= 13.000
                                        CONDUCTIVITY= 5.000E-03 MHOS/METER
                                        COMPLEX DIELECTRIC CONSTANT= 1.30000E+01-1.26592E+01



                                - - - MATRIX TIMING - - -

                        FILL=    0.031 SEC.,  FACTOR=    0.000 SEC.



                                          - - - ANTENNA INPUT PARAMETERS - - -

   TAG   SEG.    VOLTAGE (VOLTS)         CURRENT (AMPS)         IMPEDANCE (OHMS)        ADMITTANCE (MHOS)      POWER
   NO.   NO.    REAL        IMAG.       REAL        IMAG.       REAL        IMAG.       REAL        IMAG.     (WATTS)
     1    18 1.00000E+00 0.00000E+00 1.67961E-02-1.84245E-03 5.88298E+01 6.45334E+00 1.67961E-02-1.84245E-03 8.39804E-03



                             - - - CURRENTS AND LOCATION - - -

                                 DISTANCES IN WAVELENGTHS


  SEG.  TAG    COORD. OF SEG. CENTER     SEG.            - - - CURRENT (AMPS) - - -
  NO.   NO.     X        Y        Z      LENGTH     REAL        IMAG.       MAG.        PHASE
     1    1   0.0606  -0.1777   0.4736  0.01045   6.9838E-03 -1.1481E-03  7.0776E-03   -9.336
     2    1   0.0606  -0.1672   0.4736  0.01045   7.9918E-03 -1.2737E-03  8.0927E-03   -9.056
     3    1   0.0606  -0.1568   0.4736  0.01045   8.9663E-03 -1.3929E-03  9.0739E-03   -8.830
     4    1   0.0606  -0.1463   0.4736  0.01045   9.9016E-03 -1.5042E-03  1.0015E-02   -8.638
     5    1   0.0606  -0.1359   0.4736  0.01045   1.0793E-02 -1.6064E-03  1.0911E-02   -8.466
     6    1   0.0606  -0.1254   0.4736  0.01045   1.1634E-02 -1.6987E-03  1.1758E-02   -8.307
     7    1   0.0606  -0.1150   0.4736  0.01045   1.2423E-02 -1.7802E-03  1.2550E-02   -8.155
     8    1   0.0606  -0.1045   0.4736  0.01045   1.3155E-02 -1.8503E-03  1.3285E-02   -8.006
     9    1   0.0606  -0.0941   0.4736  0.01045   1.3827E-02 -1.9084E-03  1.3958E-02   -7.858
    10    1   0.0606  -0.0836   0.4736  0.01045   1.4436E-02 -1.9542E-03  1.4568E-02   -7.709
    11    1   0.0606  -0.0732   0.4736  0.01045   1.4980E-02 -1.9873E-03  1.5111E-02   -7.557
    12    1   0.0606  -0.0627   0.4736  0.01045   1.5456E-02 -2.0074E-03  1.5586E-02   -7.400
    13    1   0.0606  -0.0523   0.4736  0.01045   1.5862E-02 -2.0141E-03  1.5989E-02   -7.237
    14    1   0.0606  -0.0418   0.4736  0.01045   1.6196E-02 -2.0071E-03  1.6320E-02   -7.064
    15    1   0.0606  -0.0314   0.4736  0.01045   1.6458E-02 -1.9859E-03  1.6577E-02   -6.881
    16    1   0.0606  -0.0209   0.4736  0.01045   1.6645E-02 -1.9499E-03  1.6759E-02   -6.681
    17    1   0.0606  -0.0105   0.4736  0.01045   1.6758E-02 -1.8966E-03  1.6865E-02   -6.457
    18    1   0.0606   0.0000   0.4736  0.01045   1.6796E-02 -1.8424E-03  1.6897E-02   -6.260
    19    1   0.0606   0.0105   0.4736  0.01045   1.6758E-02 -1.8966E-03  1.6865E-02   -6.457
    20    1   0.0606   0.0209   0.4736  0.01045   1.6645E-02 -1.9499E-03  1.6759E-02   -6.681
    21    1   0.0606   0.0314   0.4736  0.01045   1.6458E-02 -1.9859E-03  1.6577E-02   -6.881
    22    1   0.0606   0.0418   0.4736  0.01045   1.6196E-02 -2.0071E-03  1.6320E-02   -7.064
    23    1   0.0606   0.0523   0.4736  0.01045   1.5862E-02 -2.0141E-03  1.5989E-02   -7.237
    24    1   0.0606   0.0627   0.4736  0.01045   1.5456E-02 -2.0074E-03  1.5586E-02   -7.400
    25    1   0.0606   0.0732   0.4736  0.01045   1.4980E-02 -1.9873E-03  1.5111E-02   -7.557
    26    1   0.0606   0.0836   0.4736  0.01045   1.4436E-02 -1.9542E-03  1.4568E-02   -7.709
    27    1   0.0606   0.0941   0.4736  0.01045   1.3827E-02 -1.9084E-03  1.3958E-02   -7.858
    28    1   0.0606   0.1045   0.4736  0.01045   1.3155E-02 -1.8503E-03  1.3285E-02   -8.006
    29    1   0.0606   0.1150   0.4736  0.01045   1.2423E-02 -1.7802E-03  1.2550E-02   -8.155
    30    1   0.0606   0.1254   0.4736  0.01045   1.1634E-02 -1.6987E-03  1.1758E-02   -8.307
    31    1   0.0606   0.1359   0.4736  0.01045   1.0793E-02 -1.6064E-03  1.0911E-02   -8.466
    32    1   0.0606   0.1463   0.4736  0.01045   9.9016E-03 -1.5042E-03  1.0015E-02   -8.638
    33    1   0.0606   0.1568   0.4736  0.01045   8.9663E-03 -1.3929E-03  9.0739E-03   -8.830
    34    1   0.0606   0.1672   0.4736  0.01045   7.9918E-03 -1.2737E-03  8.0927E-03   -9.056
    35    1   0.0606   0.1777   0.4736  0.01045   6.9838E-03 -1.1481E-03  7.0776E-03   -9.336
    36    2   0.0096  -0.1829   0.4736  0.01132   7.9949E-04 -1.7616E-04  8.1867E-04  -12.426
    37    2   0.0210  -0.1829   0.4736  0.01132   2.2040E-03 -4.4571E-04  2.2486E-03  -11.433
    38    2   0.0323  -0.1829   0.4736  0.01132   3.4974E-03 -6.6216E-04  3.5595E-03  -10.721
    39    2   0.0436  -0.1829   0.4736  0.01132   4.7267E-03 -8.4791E-04  4.8021E-03  -10.170
    40    2   0.0549  -0.1829   0.4736  0.01132   5.9015E-03 -1.0101E-03  5.9874E-03   -9.713
    41    3   0.0549   0.1829   0.4736  0.01132   5.9015E-03 -1.0101E-03  5.9874E-03   -9.713
    42    3   0.0436   0.1829   0.4736  0.01132   4.7267E-03 -8.4791E-04  4.8021E-03  -10.170
    43    3   0.0323   0.1829   0.4736  0.01132   3.4974E-03 -6.6216E-04  3.5595E-03  -10.721
    44    3   0.0210   0.1829   0.4736  0.01132   2.2040E-03 -4.4571E-04  2.2486E-03  -11.433
    45    3   0.0096   0.1829   0.4736  0.01132   7.9949E-04 -1.7616E-04  8.1867E-04  -12.426
    46    4  -0.0711  -0.1777   0.4736  0.01045  -5.0463E-03  6.8401E-03  8.5001E-03  126.418
    47    4  -0.0711  -0.1672   0.4736  0.01045  -5.6275E-03  7.6807E-03  9.5216E-03  126.230
    48    4  -0.0711  -0.1568   0.4736  0.01045  -6.1911E-03  8.4922E-03  1.0509E-02  126.093
    49    4  -0.0711  -0.1463   0.4736  0.01045  -6.7333E-03  9.2705E-03  1.1458E-02  125.991
    50    4  -0.0711  -0.1359   0.4736  0.01045  -7.2508E-03  1.0011E-02  1.2361E-02  125.914
    51    4  -0.0711  -0.1254   0.4736  0.01045  -7.7408E-03  1.0711E-02  1.3216E-02  125.854
    52    4  -0.0711  -0.1150   0.4736  0.01045  -8.2006E-03  1.1367E-02  1.4017E-02  125.807
    53    4  -0.0711  -0.1045   0.4736  0.01045  -8.6279E-03  1.1976E-02  1.4760E-02  125.770
    54    4  -0.0711  -0.0941   0.4736  0.01045  -9.0206E-03  1.2535E-02  1.5443E-02  125.740
    55    4  -0.0711  -0.0836   0.4736  0.01045  -9.3769E-03  1.3041E-02  1.6062E-02  125.717
    56    4  -0.0711  -0.0732   0.4736  0.01045  -9.6950E-03  1.3493E-02  1.6615E-02  125.697
    57    4  -0.0711  -0.0627   0.4736  0.01045  -9.9737E-03  1.3889E-02  1.7099E-02  125.682
