1



                                 *********************************************

                                    NUMERICAL ELECTROMAGNETICS CODE (NEC-2D)

                                 *********************************************




                                     - - - - COMMENTS - - - -


                                                                                                     




                                 - - - STRUCTURE SPECIFICATION - - -

                                     COORDINATES MUST BE INPUT IN
                                     METERS OR BE SCALED TO METERS
                                     BEFORE STRUCTURE INPUT IS ENDED


  WIRE                                                                               NO. OF    FIRST  LAST     TAG
  NO.        X1         Y1         Z1          X2         Y2         Z2      RADIUS   SEG.     SEG.   SEG.     NO.
     1    0.00000    0.00000    0.00000     0.60000    0.00000    0.00000    0.00100      7        1     7       1

   TOTAL SEGMENTS USED=    7     NO. SEG. IN A SYMMETRIC CELL=    7     SYMMETRY FLAG=  0


         - MULTIPLE WIRE JUNCTIONS -
 JUNCTION    SEGMENTS  (- FOR END 1, + FOR END 2)
  NONE




                                 - - - - SEGMENTATION DATA - - - -

                                        COORDINATES IN METERS

                         I+ AND I- INDICATE THE SEGMENTS BEFORE AND AFTER I


  SEG.   COORDINATES OF SEG. CENTER     SEG.     ORIENTATION ANGLES    WIRE    CONNECTION DATA   TAG
  NO.       X         Y         Z       LENGTH     ALPHA     BETA      RADIUS    I-   I    I+    NO.
     1   0.04286   0.00000   0.00000   0.08571    0.00000   0.00000   0.00100     0    1    2      1
     2   0.12857   0.00000   0.00000   0.08571    0.00000   0.00000   0.00100     1    2    3      1
     3   0.21429   0.00000   0.00000   0.08571    0.00000   0.00000   0.00100     2    3    4      1
     4   0.30000   0.00000   0.00000   0.08571    0.00000   0.00000   0.00100     3    4    5      1
     5   0.38571   0.00000   0.00000   0.08571    0.00000   0.00000   0.00100     4    5    6      1
     6   0.47143   0.00000   0.00000   0.08571    0.00000   0.00000   0.00100     5    6    7      1
     7   0.55714   0.00000   0.00000   0.08571    0.00000   0.00000   0.00100     6    7    0      1






 ***** DATA CARD NO.  1   EX   0     1     4     0  1.00000E+00  0.00000E+00  0.00000E+00  0.00000E+00  0.00000E+00  0.00000E+00
 ***** DATA CARD NO.  2   GN  -1     0     0     0  0.00000E+00  0.00000E+00  0.00000E+00  0.00000E+00  0.00000E+00  0.00000E+00
 ***** DATA CARD NO.  3   FR   0     1     0     0  2.40000E+03  0.00000E+00  0.00000E+00  0.00000E+00  0.00000E+00  0.00000E+00
 ***** DATA CARD NO.  4   RP   0    37    73  1003 -1.80000E+02  0.00000E+00  5.00000E+00  5.00000E+00  0.00000E+00  0.00000E+00




                                 - - - - - - FREQUENCY - - - - - -

                                    FREQUENCY= 2.4000E+03 MHZ
                                    WAVELENGTH= 1.2492E-01 METERS




                    APPROXIMATE INTEGRATION EMPLOYED FOR SEGMENTS MORE THAN   1.000 WAVELENGTHS APART



                               - - - STRUCTURE IMPEDANCE LOADING - - -

                                   THIS STRUCTURE IS NOT LOADED



                                  - - - ANTENNA ENVIRONMENT - - -

                                            FREE SPACE



                                - - - MATRIX TIMING - - -

                        FILL=    0.000 SEC.,  FACTOR=    0.000 SEC.



                                          - - - ANTENNA INPUT PARAMETERS - - -

   TAG   SEG.    VOLTAGE (VOLTS)         CURRENT (AMPS)         IMPEDANCE (OHMS)        ADMITTANCE (MHOS)      POWER
   NO.   NO.    REAL        IMAG.       REAL        IMAG.       REAL        IMAG.       REAL        IMAG.     (WATTS)
     1     4 1.00000E+00 0.00000E+00 1.05716E-03-1.74695E-03 2.53552E+02 4.18991E+02 1.05716E-03-1.74695E-03 5.28580E-04



                             - - - CURRENTS AND LOCATION - - -

                                 DISTANCES IN WAVELENGTHS


  SEG.  TAG    COORD. OF SEG. CENTER     SEG.            - - - CURRENT (AMPS) - - -
  NO.   NO.     X        Y        Z      LENGTH     REAL        IMAG.       MAG.        PHASE
     1    1   0.3431   0.0000   0.0000  0.68617   5.1459E-04 -6.3695E-04  8.1885E-04  -51.066
     2    1   1.0293   0.0000   0.0000  0.68617   5.5777E-05 -1.8671E-04  1.9486E-04  -73.367
     3    1   1.7154   0.0000   0.0000  0.68617  -4.7791E-04  7.4257E-04  8.8307E-04  122.765
     4    1   2.4016   0.0000   0.0000  0.68617   1.0572E-03 -1.7469E-03  2.0419E-03  -58.820
     5    1   3.0878   0.0000   0.0000  0.68617  -4.7791E-04  7.4257E-04  8.8307E-04  122.765
     6    1   3.7739   0.0000   0.0000  0.68617   5.5777E-05 -1.8671E-04  1.9486E-04  -73.367
     7    1   4.4601   0.0000   0.0000  0.68617   5.1459E-04 -6.3695E-04  8.1885E-04  -51.066



                                        - - - POWER BUDGET - - -

                                           INPUT POWER   = 5.2858E-04 WATTS
                                           RADIATED POWER= 5.2858E-04 WATTS
                                           STRUCTURE LOSS= 0.0000E+00 WATTS
                                           NETWORK LOSS  = 0.0000E+00 WATTS
                                           EFFICIENCY    = 100.00 PERCENT



                                                - - - RADIATION PATTERNS - - -

  - - ANGLES - -           - POWER GAINS -       - - - POLARIZATION - - -    - - - E(THETA) - - -    - - - E(PHI) - - -
  THETA     PHI        VERT.   HOR.    TOTAL      AXIAL     TILT   SENSE     MAGNITUDE    PHASE      MAGNITUDE    PHASE 
 DEGREES  DEGREES       DB      DB      DB        RATIO     DEG.              VOLTS/M    DEGREES      VOLTS/M    DEGREES
 -180.00     0.00       0.97 -999.99    0.97    0.00000     0.00  LINEAR    1.99147E-01    33.31    0.00000E+00     0.00
 -175.00     0.00      -1.20 -999.99   -1.20    0.00000     0.00  LINEAR    1.55135E-01   -45.49    0.00000E+00     0.00
 -170.00     0.00      -5.78 -999.99   -5.78    0.00000     0.00  LINEAR    9.15640E-02  -134.08    0.00000E+00     0.00
 -165.00     0.00      -4.97 -999.99   -4.97    0.00000     0.00  LINEAR    1.00430E-01   149.29    0.00000E+00     0.00
 -160.00     0.00      -0.72 -999.99   -0.72    0.00000     0.00  LINEAR    1.63877E-01    88.78    0.00000E+00     0.00
 -155.00     0.00       0.67 -999.99    0.67    0.00000     0.00  LINEAR    1.92202E-01    25.44    0.00000E+00     0.00
 -150.00     0.00      -2.18 -999.99   -2.18    0.00000     0.00  LINEAR    1.38485E-01   -38.35    0.00000E+00     0.00
 -145.00     0.00      -9.67 -999.99   -9.67    0.00000     0.00  LINEAR    5.84834E-02  -102.98    0.00000E+00     0.00
 -140.00     0.00     -14.39 -999.99  -14.39    0.00000     0.00  LINEAR    3.39507E-02  -176.91    0.00000E+00     0.00
 -135.00     0.00      -6.69 -999.99   -6.69    0.00000     0.00  LINEAR    8.23912E-02   131.66    0.00000E+00     0.00
 -130.00     0.00      -0.90 -999.99   -0.90    0.00000     0.00  LINEAR    1.60574E-01    85.57    0.00000E+00     0.00
 -125.00     0.00       1.69 -999.99    1.69    0.00000     0.00  LINEAR    2.16366E-01    42.20    0.00000E+00     0.00
 -120.00     0.00       2.07 -999.99    2.07    0.00000     0.00  LINEAR    2.25999E-01     3.31    0.00000E+00     0.00
 -115.00     0.00       0.87 -999.99    0.87    0.00000     0.00  LINEAR    1.96757E-01   -30.24    0.00000E+00     0.00
 -110.00     0.00      -1.55 -999.99   -1.55    0.00000     0.00  LINEAR    1.49003E-01   -57.97    0.00000E+00     0.00
 -105.00     0.00      -4.99 -999.99   -4.99    0.00000     0.00  LINEAR    1.00262E-01   -79.57    0.00000E+00     0.00
 -100.00     0.00      -9.56 -999.99   -9.56    0.00000     0.00  LINEAR    5.92532E-02   -94.93    0.00000E+00     0.00
  -95.00     0.00     -16.39 -999.99  -16.39    0.00000     0.00  LINEAR    2.69890E-02  -104.05    0.00000E+00     0.00
  -90.00     0.00    -999.99 -999.99 -999.99    0.00000     0.00            1.52386E-12  -107.07    0.00000E+00     0.00
  -85.00     0.00     -16.39 -999.99  -16.39    0.00000     0.00  LINEAR    2.69890E-02    75.95    0.00000E+00     0.00
  -80.00     0.00      -9.56 -999.99   -9.56    0.00000     0.00  LINEAR    5.92532E-02    85.07    0.00000E+00     0.00
  -75.00     0.00      -4.99 -999.99   -4.99    0.00000     0.00  LINEAR    1.00262E-01   100.43    0.00000E+00     0.00
  -70.00     0.00      -1.55 -999.99   -1.55    0.00000     0.00  LINEAR    1.49003E-01   122.03    0.00000E+00     0.00
  -65.00     0.00       0.87 -999.99    0.87    0.00000     0.00  LINEAR    1.96757E-01   149.76    0.00000E+00     0.00
  -60.00     0.00       2.07 -999.99    2.07    0.00000     0.00  LINEAR    2.25999E-01  -176.69    0.00000E+00     0.00
  -55.00     0.00       1.69 -999.99    1.69    0.00000     0.00  LINEAR    2.16366E-01  -137.80    0.00000E+00     0.00
  -50.00     0.00      -0.90 -999.99   -0.90    0.00000     0.00  LINEAR    1.60574E-01   -94.43    0.00000E+00     0.00
  -45.00     0.00      -6.69 -999.99   -6.69    0.00000     0.00  LINEAR    8.23912E-02   -48.34    0.00000E+00     0.00
  -40.00     0.00     -14.39 -999.99  -14.39    0.00000     0.00  LINEAR    3.39507E-02     3.09    0.00000E+00     0.00
  -35.00     0.00      -9.67 -999.99   -9.67    0.00000     0.00  LINEAR    5.84834E-02    77.02    0.00000E+00     0.00
  -30.00     0.00      -2.18 -999.99   -2.18    0.00000     0.00  LINEAR    1.38485E-01   141.65    0.00000E+00     0.00
  -25.00     0.00       0.67 -999.99    0.67    0.00000     0.00  LINEAR    1.92202E-01  -154.56    0.00000E+00     0.00
  -20.00     0.00      -0.72 -999.99   -0.72    0.00000     0.00  LINEAR    1.63877E-01   -91.22    0.00000E+00     0.00
  -15.00     0.00      -4.97 -999.99   -4.97    0.00000     0.00  LINEAR    1.00430E-01   -30.71    0.00000E+00     0.00
  -10.00     0.00      -5.78 -999.99   -5.78    0.00000     0.00  LINEAR    9.15640E-02    45.92    0.00000E+00     0.00
   -5.00     0.00      -1.20 -999.99   -1.20    0.00000     0.00  LINEAR    1.55135E-01   134.51    0.00000E+00     0.00
    0.00     0.00       0.97 -999.99    0.97    0.00000     0.00  LINEAR    1.99147E-01  -146.69    0.00000E+00     0.00
 -180.00     5.00       0.94  -20.22    0.97    0.00000     5.00  LINEAR    1.98389E-01    33.31    1.73568E-02    33.31
 -175.00     5.00      -1.21  -22.34   -1.18    0.00000     5.02  LINEAR    1.54823E-01   -45.17    1.35970E-02   -45.17
 -170.00     5.00      -5.78  -26.81   -5.75    0.00000     5.08  LINEAR    9.14652E-02  -133.39    8.12561E-03  -133.39
 -165.00     5.00      -5.06  -25.92   -5.02    0.00000     5.18  LINEAR    9.94765E-02   150.02    9.01008E-03   150.02
 -160.00     5.00      -0.81  -21.43   -0.77    0.00000     5.32  LINEAR    1.62185E-01    89.77    1.51000E-02    89.77
 -155.00     5.00       0.64  -19.67    0.68    0.00000     5.51  LINEAR    1.91584E-01    26.74    1.84942E-02    26.74
 -150.00     5.00      -2.10  -22.01   -2.05    0.00000     5.77  LINEAR    1.39828E-01   -36.76    1.41259E-02   -36.76
 -145.00     5.00      -9.43  -28.86   -9.39    0.00000     6.10  LINEAR    6.00830E-02  -100.89    6.41710E-03  -100.89
 -140.00     5.00     -14.59  -33.44  -14.53    0.00000     6.52  LINEAR    3.31919E-02  -174.50    3.79079E-03  -174.50
 -135.00     5.00      -7.10  -25.25   -7.03    0.00000     7.05  LINEAR    7.86491E-02   133.69    9.73107E-03   133.69
 -130.00     5.00      -1.19  -18.51   -1.11    0.00000     7.75  LINEAR    1.55273E-01    87.91    2.11339E-02    87.91
 -125.00     5.00       1.51  -14.83    1.61    0.00000     8.67  LINEAR    2.11737E-01    44.78    3.22966E-02    44.78
 -120.00     5.00       1.97  -13.17    2.10    0.00000     9.92  LINEAR    2.23450E-01     6.06    3.90988E-02     6.06
 -115.00     5.00       0.85  -12.83    1.04    0.00000    11.70  LINEAR    1.96408E-01   -27.37    4.06595E-02   -27.37
 -110.00     5.00      -1.48  -13.32   -1.21    0.00000    14.35  LINEAR    1.50128E-01   -55.01    3.84026E-02   -55.01
 -105.00     5.00      -4.84  -14.26   -4.37    0.00000    18.68  LINEAR    1.01930E-01   -76.56    3.44555E-02   -76.56
 -100.00     5.00      -9.34  -15.30   -8.36    0.00000    26.74  LINEAR    6.07262E-02   -91.90    3.05955E-02   -91.90
  -95.00     5.00     -16.12  -16.09  -13.09    0.00000    45.11  LINEAR    2.78221E-02  -101.03    2.79284E-02  -101.03
  -90.00     5.00    -999.99  -16.39  -16.39    0.00000    90.00  LINEAR    1.57433E-12  -104.05    2.69890E-02  -104.05
  -85.00     5.00     -16.12  -16.09  -13.09    0.00000   -45.11  LINEAR    2.78221E-02    78.97    2.79284E-02  -101.03
  -80.00     5.00      -9.34  -15.30   -8.36    0.00000   -26.74  LINEAR    6.07262E-02    88.10    3.05955E-02   -91.90
  -75.00     5.00      -4.84  -14.26   -4.37    0.00000   -18.68  LINEAR    1.01930E-01   103.44    3.44555E-02   -76.56
  -70.00     5.00      -1.48  -13.32   -1.21    0.00000   -14.35  LINEAR    1.50128E-01   124.99    3.84026E-02   -55.01
  -65.00     5.00       0.85  -12.83    1.04    0.00000   -11.70  LINEAR    1.96408E-01   152.63    4.06595E-02   -27.37
  -60.00     5.00       1.97  -13.17    2.10    0.00000    -9.92  LINEAR    2.23450E-01  -173.94    3.90988E-02     6.06
  -55.00     5.00       1.51  -14.83    1.61    0.00000    -8.67  LINEAR    2.11737E-01  -135.22    3.22966E-02    44.78
  -50.00     5.00      -1.19  -18.51   -1.11    0.00000    -7.75  LINEAR    1.55273E-01   -92.09    2.11339E-02    87.91
  -45.00     5.00      -7.10  -25.25   -7.03    0.00000    -7.05  LINEAR    7.86491E-02   -46.31    9.73107E-03   133.69
  -40.00     5.00     -14.59  -33.44  -14.53    0.00000    -6.52  LINEAR    3.31919E-02     5.50    3.79079E-03  -174.50
  -35.00     5.00      -9.43  -28.86   -9.39    0.00000    -6.10  LINEAR    6.00830E-02    79.11    6.41710E-03  -100.89
  -30.00     5.00      -2.10  -22.01   -2.05    0.00000    -5.77  LINEAR    1.39828E-01   143.24    1.41259E-02   -36.76
  -25.00     5.00       0.64  -19.67    0.68    0.00000    -5.51  LINEAR    1.91584E-01  -153.26    1.84942E-02    26.74
  -20.00     5.00      -0.81  -21.43   -0.77    0.00000    -5.32  LINEAR    1.62185E-01   -90.23    1.51000E-02    89.77
  -15.00     5.00      -5.06  -25.92   -5.02    0.00000    -5.18  LINEAR    9.94765E-02   -29.98    9.01008E-03   150.02
  -10.00     5.00      -5.78  -26.81   -5.75    0.00000    -5.08  LINEAR    9.14652E-02    46.61    8.12561E-03  -133.39
   -5.00     5.00      -1.21  -22.34   -1.18    0.00000    -5.02  LINEAR    1.54823E-01   134.83    1.35970E-02   -45.17
    0.00     5.00       0.94  -20.22    0.97    0.00000    -5.00  LINEAR    1.98389E-01  -146.69    1.73568E-02    33.31
 -180.00    10.00       0.84  -14.23    0.97    0.00000    10.00  LINEAR    1.96121E-01    33.31    3.45815E-02    33.31
 -175.00    10.00      -1.27  -16.31   -1.13    0.00000    10.04  LINEAR    1.53873E-01   -44.22    2.72357E-02   -44.22
 -170.00    10.00      -5.81  -20.75   -5.67    0.00000    10.15  LINEAR    9.11877E-02  -131.29    1.63269E-02  -131.29
 -165.00    10.00      -5.30  -20.07   -5.16    0.00000    10.35  LINEAR    9.67041E-02   152.20    1.76531E-02   152.20
 -160.00    10.00      -1.08  -15.62   -0.93    0.00000    10.63  LINEAR    1.57128E-01    92.70    2.94840E-02    92.70
 -155.00    10.00       0.54  -13.68    0.70    0.00000    11.01  LINEAR    1.89509E-01    30.63    3.68699E-02    30.63
 -150.00    10.00      -1.87  -15.69   -1.69    0.00000    11.51  LINEAR    1.43606E-01   -31.99    2.92389E-02   -31.99
 -145.00    10.00      -8.75  -22.09   -8.55    0.00000    12.15  LINEAR    6.50434E-02   -94.77    1.40010E-02   -94.77
 -140.00    10.00     -15.02  -27.78  -14.79    0.00000    12.96  LINEAR    3.15903E-02  -166.94    7.27140E-03  -166.94
 -135.00    10.00      -8.33  -20.39   -8.07    0.00000    14.00  LINEAR    6.82179E-02   139.74    1.70111E-02   139.74
 -130.00    10.00      -2.10  -13.34   -1.79    0.00000    15.34  LINEAR    1.39748E-01    94.89    3.83350E-02    94.89
 -125.00    10.00       0.90   -9.34    1.30    0.00000    17.09  LINEAR    1.97554E-01    52.46    6.07315E-02    52.46
 -120.00    10.00       1.64   -7.41    2.15    0.00000    19.43  LINEAR    2.14981E-01    14.26    7.58139E-02    14.26
 -115.00    10.00       0.76   -6.83    1.46    0.00000    22.65  LINEAR    1.94342E-01   -18.77    8.10842E-02   -18.77
 -110.00    10.00      -1.34   -7.09   -0.32    0.00000    27.27  LINEAR    1.52580E-01   -46.13    7.86618E-02   -46.13
 -105.00    10.00      -4.48   -7.82   -2.83    0.00000    34.27  LINEAR    1.06257E-01   -67.52    7.23905E-02   -67.52
 -100.00    10.00      -8.79   -8.65   -5.71    0.00000    45.44  LINEAR    6.47290E-02   -82.78    6.57276E-02   -82.78
  -95.00    10.00     -15.43   -9.31   -8.36    0.00000    63.70  LINEAR    3.01307E-02   -91.90    6.09581E-02   -91.90
  -90.00    10.00    -999.99   -9.56   -9.56    0.00000    90.00  LINEAR    1.71496E-12   -94.93    5.92532E-02   -94.93
  -85.00    10.00     -15.43   -9.31   -8.36    0.00000   -63.70  LINEAR    3.01307E-02    88.10    6.09581E-02   -91.90
  -80.00    10.00      -8.79   -8.65   -5.71    0.00000   -45.44  LINEAR    6.47290E-02    97.22    6.57276E-02   -82.78
  -75.00    10.00      -4.48   -7.82   -2.83    0.00000   -34.27  LINEAR    1.06257E-01   112.48    7.23905E-02   -67.52
  -70.00    10.00      -1.34   -7.09   -0.32    0.00000   -27.27  LINEAR    1.52580E-01   133.87    7.86618E-02   -46.13
  -65.00    10.00       0.76   -6.83    1.46    0.00000   -22.65  LINEAR    1.94342E-01   161.23    8.10842E-02   -18.77
  -60.00    10.00       1.64   -7.41    2.15    0.00000   -19.43  LINEAR    2.14981E-01  -165.74    7.58139E-02    14.26
  -55.00    10.00       0.90   -9.34    1.30    0.00000   -17.09  LINEAR    1.97554E-01  -127.54    6.07315E-02    52.46
  -50.00    10.00      -2.10  -13.34   -1.79    0.00000   -15.34  LINEAR    1.39748E-01   -85.11    3.83350E-02    94.89
  -45.00    10.00      -8.33  -20.39   -8.07    0.00000   -14.00  LINEAR    6.82179E-02   -40.26    1.70111E-02   139.74
  -40.00    10.00     -15.02  -27.78  -14.79    0.00000   -12.96  LINEAR    3.15903E-02    13.06    7.27140E-03  -166.94
  -35.00    10.00      -8.75  -22.09   -8.55    0.00000   -12.15  LINEAR    6.50434E-02    85.23    1.40010E-02   -94.77
  -30.00    10.00      -1.87  -15.69   -1.69    0.00000   -11.51  LINEAR    1.43606E-01   148.01    2.92389E-02   -31.99
  -25.00    10.00       0.54  -13.68    0.70    0.00000   -11.01  LINEAR    1.89509E-01  -149.37    3.68699E-02    30.63
  -20.00    10.00      -1.08  -15.62   -0.93    0.00000   -10.63  LINEAR    1.57128E-01   -87.30    2.94840E-02    92.70
  -15.00    10.00      -5.30  -20.07   -5.16    0.00000   -10.35  LINEAR    9.67041E-02   -27.80    1.76531E-02   152.20
  -10.00    10.00      -5.81  -20.75   -5.67    0.00000   -10.15  LINEAR    9.11877E-02    48.71    1.63269E-02  -131.29
   -5.00    10.00      -1.27  -16.31   -1.13    0.00000   -10.04  LINEAR    1.53873E-01   135.78    2.72357E-02   -44.22
    0.00    10.00       0.84  -14.23    0.97    0.00000   -10.00  LINEAR    1.96121E-01  -146.69    3.45815E-02    33.31
 -180.00    15.00       0.67  -10.77    0.97    0.00000    15.00  LINEAR    1.92361E-01    33.31    5.15430E-02    33.31
 -175.00    15.00      -1.36  -12.76   -1.06    0.00000    15.05  LINEAR    1.52250E-01   -42.66    4.09511E-02   -42.66
 -170.00    15.00      -5.85  -17.16   -5.54    0.00000    15.22  LINEAR    9.07832E-02  -127.80    2.47005E-02  -127.80
