1



                                 *********************************************

                                    NUMERICAL ELECTROMAGNETICS CODE (NEC-2D)

                                 *********************************************




                                     - - - - COMMENTS - - - -


                                                                                                     




                                 - - - STRUCTURE SPECIFICATION - - -

                                     COORDINATES MUST BE INPUT IN
                                     METERS OR BE SCALED TO METERS
                                     BEFORE STRUCTURE INPUT IS ENDED


  WIRE                                                                               NO. OF    FIRST  LAST     TAG
  NO.        X1         Y1         Z1          X2         Y2         Z2      RADIUS   SEG.     SEG.   SEG.     NO.
     1    0.00000    0.00000    0.00000     0.00000    0.00000    0.02500    0.00041      7        1     7       1

   TOTAL SEGMENTS USED=    7     NO. SEG. IN A SYMMETRIC CELL=    7     SYMMETRY FLAG=  0


         - MULTIPLE WIRE JUNCTIONS -
 JUNCTION    SEGMENTS  (- FOR END 1, + FOR END 2)
  NONE




                                 - - - - SEGMENTATION DATA - - - -

                                        COORDINATES IN METERS

                         I+ AND I- INDICATE THE SEGMENTS BEFORE AND AFTER I


  SEG.   COORDINATES OF SEG. CENTER     SEG.     ORIENTATION ANGLES    WIRE    CONNECTION DATA   TAG
  NO.       X         Y         Z       LENGTH     ALPHA     BETA      RADIUS    I-   I    I+    NO.
     1   0.00000   0.00000   0.00179   0.00357   90.00000   0.00000   0.00041     0    1    2      1
     2   0.00000   0.00000   0.00536   0.00357   90.00000   0.00000   0.00041     1    2    3      1
     3   0.00000   0.00000   0.00893   0.00357   90.00000   0.00000   0.00041     2    3    4      1
     4   0.00000   0.00000   0.01250   0.00357   90.00000   0.00000   0.00041     3    4    5      1
     5   0.00000   0.00000   0.01607   0.00357   90.00000   0.00000   0.00041     4    5    6      1
     6   0.00000   0.00000   0.01964   0.00357   90.00000   0.00000   0.00041     5    6    7      1
     7   0.00000   0.00000   0.02321   0.00357   90.00000   0.00000   0.00041     6    7    0      1






 ***** DATA CARD NO.  1   EX   0     1     4     0  1.00000E+00  0.00000E+00  0.00000E+00  0.00000E+00  0.00000E+00  0.00000E+00
 ***** DATA CARD NO.  2   GN  -1     0     0     0  0.00000E+00  0.00000E+00  0.00000E+00  0.00000E+00  0.00000E+00  0.00000E+00
 ***** DATA CARD NO.  3   FR   0     1     0     0  2.40000E+03  0.00000E+00  0.00000E+00  0.00000E+00  0.00000E+00  0.00000E+00
 ***** DATA CARD NO.  4   RP   0    37    73  1003 -1.80000E+02  0.00000E+00  5.00000E+00  5.00000E+00  0.00000E+00  0.00000E+00




                                 - - - - - - FREQUENCY - - - - - -

                                    FREQUENCY= 2.4000E+03 MHZ
                                    WAVELENGTH= 1.2492E-01 METERS




                    APPROXIMATE INTEGRATION EMPLOYED FOR SEGMENTS MORE THAN   1.000 WAVELENGTHS APART



                               - - - STRUCTURE IMPEDANCE LOADING - - -

                                   THIS STRUCTURE IS NOT LOADED



                                  - - - ANTENNA ENVIRONMENT - - -

                                            FREE SPACE



                                - - - MATRIX TIMING - - -

                        FILL=    0.000 SEC.,  FACTOR=    0.000 SEC.



                                          - - - ANTENNA INPUT PARAMETERS - - -

   TAG   SEG.    VOLTAGE (VOLTS)         CURRENT (AMPS)         IMPEDANCE (OHMS)        ADMITTANCE (MHOS)      POWER
   NO.   NO.    REAL        IMAG.       REAL        IMAG.       REAL        IMAG.       REAL        IMAG.     (WATTS)
     1     4 1.00000E+00 0.00000E+00 5.28240E-05 2.35745E-03 9.50012E+00-4.23975E+02 5.28240E-05 2.35745E-03 2.64120E-05



                             - - - CURRENTS AND LOCATION - - -

                                 DISTANCES IN WAVELENGTHS


  SEG.  TAG    COORD. OF SEG. CENTER     SEG.            - - - CURRENT (AMPS) - - -
  NO.   NO.     X        Y        Z      LENGTH     REAL        IMAG.       MAG.        PHASE
     1    1   0.0000   0.0000   0.0143  0.02859   1.9071E-05  4.9078E-04  4.9115E-04   87.775
     2    1   0.0000   0.0000   0.0429  0.02859   3.8706E-05  1.1447E-03  1.1453E-03   88.063
     3    1   0.0000   0.0000   0.0715  0.02859   4.9320E-05  1.7684E-03  1.7690E-03   88.402
     4    1   0.0000   0.0000   0.1001  0.02859   5.2824E-05  2.3574E-03  2.3580E-03   88.716
     5    1   0.0000   0.0000   0.1287  0.02859   4.9320E-05  1.7684E-03  1.7690E-03   88.402
     6    1   0.0000   0.0000   0.1572  0.02859   3.8706E-05  1.1447E-03  1.1453E-03   88.063
     7    1   0.0000   0.0000   0.1858  0.02859   1.9071E-05  4.9078E-04  4.9115E-04   87.775



                                        - - - POWER BUDGET - - -

                                           INPUT POWER   = 2.6412E-05 WATTS
                                           RADIATED POWER= 2.6412E-05 WATTS
                                           STRUCTURE LOSS= 0.0000E+00 WATTS
                                           NETWORK LOSS  = 0.0000E+00 WATTS
                                           EFFICIENCY    = 100.00 PERCENT



                                                - - - RADIATION PATTERNS - - -

  - - ANGLES - -           - POWER GAINS -       - - - POLARIZATION - - -    - - - E(THETA) - - -    - - - E(PHI) - - -
  THETA     PHI        VERT.   HOR.    TOTAL      AXIAL     TILT   SENSE     MAGNITUDE    PHASE      MAGNITUDE    PHASE 
 DEGREES  DEGREES       DB      DB      DB        RATIO     DEG.              VOLTS/M    DEGREES      VOLTS/M    DEGREES
 -180.00     0.00    -999.99 -999.99 -999.99    0.00000     0.00            4.81580E-13   142.32    0.00000E+00     0.00
 -175.00     0.00     -19.71 -999.99  -19.71    0.00000     0.00  LINEAR    4.11335E-03   -37.54    0.00000E+00     0.00
 -170.00     0.00     -13.72 -999.99  -13.72    0.00000     0.00  LINEAR    8.20221E-03   -37.13    0.00000E+00     0.00
 -165.00     0.00     -10.24 -999.99  -10.24    0.00000     0.00  LINEAR    1.22419E-02   -36.45    0.00000E+00     0.00
 -160.00     0.00      -7.80 -999.99   -7.80    0.00000     0.00  LINEAR    1.62070E-02   -35.50    0.00000E+00     0.00
 -155.00     0.00      -5.94 -999.99   -5.94    0.00000     0.00  LINEAR    2.00718E-02   -34.30    0.00000E+00     0.00
 -150.00     0.00      -4.46 -999.99   -4.46    0.00000     0.00  LINEAR    2.38095E-02   -32.85    0.00000E+00     0.00
 -145.00     0.00      -3.24 -999.99   -3.24    0.00000     0.00  LINEAR    2.73927E-02   -31.16    0.00000E+00     0.00
 -140.00     0.00      -2.23 -999.99   -2.23    0.00000     0.00  LINEAR    3.07932E-02   -29.25    0.00000E+00     0.00
 -135.00     0.00      -1.37 -999.99   -1.37    0.00000     0.00  LINEAR    3.39828E-02   -27.13    0.00000E+00     0.00
 -130.00     0.00      -0.65 -999.99   -0.65    0.00000     0.00  LINEAR    3.69329E-02   -24.81    0.00000E+00     0.00
 -125.00     0.00      -0.04 -999.99   -0.04    0.00000     0.00  LINEAR    3.96156E-02   -22.32    0.00000E+00     0.00
 -120.00     0.00       0.47 -999.99    0.47    0.00000     0.00  LINEAR    4.20040E-02   -19.67    0.00000E+00     0.00
 -115.00     0.00       0.89 -999.99    0.89    0.00000     0.00  LINEAR    4.40731E-02   -16.89    0.00000E+00     0.00
 -110.00     0.00       1.22 -999.99    1.22    0.00000     0.00  LINEAR    4.57999E-02   -13.98    0.00000E+00     0.00
 -105.00     0.00       1.48 -999.99    1.48    0.00000     0.00  LINEAR    4.71647E-02   -10.99    0.00000E+00     0.00
 -100.00     0.00       1.66 -999.99    1.66    0.00000     0.00  LINEAR    4.81516E-02    -7.92    0.00000E+00     0.00
  -95.00     0.00       1.76 -999.99    1.76    0.00000     0.00  LINEAR    4.87486E-02    -4.80    0.00000E+00     0.00
  -90.00     0.00       1.80 -999.99    1.80    0.00000     0.00  LINEAR    4.89484E-02    -1.66    0.00000E+00     0.00
  -85.00     0.00       1.76 -999.99    1.76    0.00000     0.00  LINEAR    4.87486E-02     1.48    0.00000E+00     0.00
  -80.00     0.00       1.66 -999.99    1.66    0.00000     0.00  LINEAR    4.81516E-02     4.59    0.00000E+00     0.00
  -75.00     0.00       1.48 -999.99    1.48    0.00000     0.00  LINEAR    4.71647E-02     7.66    0.00000E+00     0.00
  -70.00     0.00       1.22 -999.99    1.22    0.00000     0.00  LINEAR    4.57999E-02    10.66    0.00000E+00     0.00
  -65.00     0.00       0.89 -999.99    0.89    0.00000     0.00  LINEAR    4.40731E-02    13.56    0.00000E+00     0.00
  -60.00     0.00       0.47 -999.99    0.47    0.00000     0.00  LINEAR    4.20040E-02    16.35    0.00000E+00     0.00
  -55.00     0.00      -0.04 -999.99   -0.04    0.00000     0.00  LINEAR    3.96156E-02    19.00    0.00000E+00     0.00
  -50.00     0.00      -0.65 -999.99   -0.65    0.00000     0.00  LINEAR    3.69329E-02    21.50    0.00000E+00     0.00
  -45.00     0.00      -1.37 -999.99   -1.37    0.00000     0.00  LINEAR    3.39828E-02    23.82    0.00000E+00     0.00
  -40.00     0.00      -2.23 -999.99   -2.23    0.00000     0.00  LINEAR    3.07932E-02    25.94    0.00000E+00     0.00
  -35.00     0.00      -3.24 -999.99   -3.24    0.00000     0.00  LINEAR    2.73927E-02    27.85    0.00000E+00     0.00
  -30.00     0.00      -4.46 -999.99   -4.46    0.00000     0.00  LINEAR    2.38095E-02    29.54    0.00000E+00     0.00
  -25.00     0.00      -5.94 -999.99   -5.94    0.00000     0.00  LINEAR    2.00718E-02    31.00    0.00000E+00     0.00
  -20.00     0.00      -7.80 -999.99   -7.80    0.00000     0.00  LINEAR    1.62070E-02    32.20    0.00000E+00     0.00
  -15.00     0.00     -10.24 -999.99  -10.24    0.00000     0.00  LINEAR    1.22419E-02    33.14    0.00000E+00     0.00
  -10.00     0.00     -13.72 -999.99  -13.72    0.00000     0.00  LINEAR    8.20221E-03    33.83    0.00000E+00     0.00
   -5.00     0.00     -19.71 -999.99  -19.71    0.00000     0.00  LINEAR    4.11335E-03    34.24    0.00000E+00     0.00
    0.00     0.00    -999.99 -999.99 -999.99    0.00000     0.00            0.00000E+00     0.00    0.00000E+00     0.00
 -180.00     5.00    -999.99 -999.99 -999.99    0.00000     0.00            4.81580E-13   142.32    0.00000E+00     0.00
 -175.00     5.00     -19.71 -999.99  -19.71    0.00000     0.00  LINEAR    4.11335E-03   -37.54    0.00000E+00     0.00
 -170.00     5.00     -13.72 -999.99  -13.72    0.00000     0.00  LINEAR    8.20221E-03   -37.13    0.00000E+00     0.00
 -165.00     5.00     -10.24 -999.99  -10.24    0.00000     0.00  LINEAR    1.22419E-02   -36.45    0.00000E+00     0.00
 -160.00     5.00      -7.80 -999.99   -7.80    0.00000     0.00  LINEAR    1.62070E-02   -35.50    0.00000E+00     0.00
 -155.00     5.00      -5.94 -999.99   -5.94    0.00000     0.00  LINEAR    2.00718E-02   -34.30    0.00000E+00     0.00
 -150.00     5.00      -4.46 -999.99   -4.46    0.00000     0.00  LINEAR    2.38095E-02   -32.85    0.00000E+00     0.00
 -145.00     5.00      -3.24 -999.99   -3.24    0.00000     0.00  LINEAR    2.73927E-02   -31.16    0.00000E+00     0.00
 -140.00     5.00      -2.23 -999.99   -2.23    0.00000     0.00  LINEAR    3.07932E-02   -29.25    0.00000E+00     0.00
 -135.00     5.00      -1.37 -999.99   -1.37    0.00000     0.00  LINEAR    3.39828E-02   -27.13    0.00000E+00     0.00
 -130.00     5.00      -0.65 -999.99   -0.65    0.00000     0.00  LINEAR    3.69329E-02   -24.81    0.00000E+00     0.00
 -125.00     5.00      -0.04 -999.99   -0.04    0.00000     0.00  LINEAR    3.96156E-02   -22.32    0.00000E+00     0.00
 -120.00     5.00       0.47 -999.99    0.47    0.00000     0.00  LINEAR    4.20040E-02   -19.67    0.00000E+00     0.00
 -115.00     5.00       0.89 -999.99    0.89    0.00000     0.00  LINEAR    4.40731E-02   -16.89    0.00000E+00     0.00
 -110.00     5.00       1.22 -999.99    1.22    0.00000     0.00  LINEAR    4.57999E-02   -13.98    0.00000E+00     0.00
 -105.00     5.00       1.48 -999.99    1.48    0.00000     0.00  LINEAR    4.71647E-02   -10.99    0.00000E+00     0.00
 -100.00     5.00       1.66 -999.99    1.66    0.00000     0.00  LINEAR    4.81516E-02    -7.92    0.00000E+00     0.00
  -95.00     5.00       1.76 -999.99    1.76    0.00000     0.00  LINEAR    4.87486E-02    -4.80    0.00000E+00     0.00
  -90.00     5.00       1.80 -999.99    1.80    0.00000     0.00  LINEAR    4.89484E-02    -1.66    0.00000E+00     0.00
  -85.00     5.00       1.76 -999.99    1.76    0.00000     0.00  LINEAR    4.87486E-02     1.48    0.00000E+00     0.00
  -80.00     5.00       1.66 -999.99    1.66    0.00000     0.00  LINEAR    4.81516E-02     4.59    0.00000E+00     0.00
  -75.00     5.00       1.48 -999.99    1.48    0.00000     0.00  LINEAR    4.71647E-02     7.66    0.00000E+00     0.00
  -70.00     5.00       1.22 -999.99    1.22    0.00000     0.00  LINEAR    4.57999E-02    10.66    0.00000E+00     0.00
  -65.00     5.00       0.89 -999.99    0.89    0.00000     0.00  LINEAR    4.40731E-02    13.56    0.00000E+00     0.00
  -60.00     5.00       0.47 -999.99    0.47    0.00000     0.00  LINEAR    4.20040E-02    16.35    0.00000E+00     0.00
  -55.00     5.00      -0.04 -999.99   -0.04    0.00000     0.00  LINEAR    3.96156E-02    19.00    0.00000E+00     0.00
  -50.00     5.00      -0.65 -999.99   -0.65    0.00000     0.00  LINEAR    3.69329E-02    21.50    0.00000E+00     0.00
  -45.00     5.00      -1.37 -999.99   -1.37    0.00000     0.00  LINEAR    3.39828E-02    23.82    0.00000E+00     0.00
  -40.00     5.00      -2.23 -999.99   -2.23    0.00000     0.00  LINEAR    3.07932E-02    25.94    0.00000E+00     0.00
  -35.00     5.00      -3.24 -999.99   -3.24    0.00000     0.00  LINEAR    2.73927E-02    27.85    0.00000E+00     0.00
  -30.00     5.00      -4.46 -999.99   -4.46    0.00000     0.00  LINEAR    2.38095E-02    29.54    0.00000E+00     0.00
  -25.00     5.00      -5.94 -999.99   -5.94    0.00000     0.00  LINEAR    2.00718E-02    31.00    0.00000E+00     0.00
  -20.00     5.00      -7.80 -999.99   -7.80    0.00000     0.00  LINEAR    1.62070E-02    32.20    0.00000E+00     0.00
  -15.00     5.00     -10.24 -999.99  -10.24    0.00000     0.00  LINEAR    1.22419E-02    33.14    0.00000E+00     0.00
  -10.00     5.00     -13.72 -999.99  -13.72    0.00000     0.00  LINEAR    8.20221E-03    33.83    0.00000E+00     0.00
   -5.00     5.00     -19.71 -999.99  -19.71    0.00000     0.00  LINEAR    4.11335E-03    34.24    0.00000E+00     0.00
    0.00     5.00    -999.99 -999.99 -999.99    0.00000     0.00            0.00000E+00     0.00    0.00000E+00     0.00
 -180.00    10.00    -999.99 -999.99 -999.99    0.00000     0.00            4.81580E-13   142.32    0.00000E+00     0.00
 -175.00    10.00     -19.71 -999.99  -19.71    0.00000     0.00  LINEAR    4.11335E-03   -37.54    0.00000E+00     0.00
 -170.00    10.00     -13.72 -999.99  -13.72    0.00000     0.00  LINEAR    8.20221E-03   -37.13    0.00000E+00     0.00
 -165.00    10.00     -10.24 -999.99  -10.24    0.00000     0.00  LINEAR    1.22419E-02   -36.45    0.00000E+00     0.00
 -160.00    10.00      -7.80 -999.99   -7.80    0.00000     0.00  LINEAR    1.62070E-02   -35.50    0.00000E+00     0.00
 -155.00    10.00      -5.94 -999.99   -5.94    0.00000     0.00  LINEAR    2.00718E-02   -34.30    0.00000E+00     0.00
 -150.00    10.00      -4.46 -999.99   -4.46    0.00000     0.00  LINEAR    2.38095E-02   -32.85    0.00000E+00     0.00
 -145.00    10.00      -3.24 -999.99   -3.24    0.00000     0.00  LINEAR    2.73927E-02   -31.16    0.00000E+00     0.00
 -140.00    10.00      -2.23 -999.99   -2.23    0.00000     0.00  LINEAR    3.07932E-02   -29.25    0.00000E+00     0.00
 -135.00    10.00      -1.37 -999.99   -1.37    0.00000     0.00  LINEAR    3.39828E-02   -27.13    0.00000E+00     0.00
 -130.00    10.00      -0.65 -999.99   -0.65    0.00000     0.00  LINEAR    3.69329E-02   -24.81    0.00000E+00     0.00
 -125.00    10.00      -0.04 -999.99   -0.04    0.00000     0.00  LINEAR    3.96156E-02   -22.32    0.00000E+00     0.00
 -120.00    10.00       0.47 -999.99    0.47    0.00000     0.00  LINEAR    4.20040E-02   -19.67    0.00000E+00     0.00
 -115.00    10.00       0.89 -999.99    0.89    0.00000     0.00  LINEAR    4.40731E-02   -16.89    0.00000E+00     0.00
 -110.00    10.00       1.22 -999.99    1.22    0.00000     0.00  LINEAR    4.57999E-02   -13.98    0.00000E+00     0.00
 -105.00    10.00       1.48 -999.99    1.48    0.00000     0.00  LINEAR    4.71647E-02   -10.99    0.00000E+00     0.00
 -100.00    10.00       1.66 -999.99    1.66    0.00000     0.00  LINEAR    4.81516E-02    -7.92    0.00000E+00     0.00
  -95.00    10.00       1.76 -999.99    1.76    0.00000     0.00  LINEAR    4.87486E-02    -4.80    0.00000E+00     0.00
  -90.00    10.00       1.80 -999.99    1.80    0.00000     0.00  LINEAR    4.89484E-02    -1.66    0.00000E+00     0.00
  -85.00    10.00       1.76 -999.99    1.76    0.00000     0.00  LINEAR    4.87486E-02     1.48    0.00000E+00     0.00
  -80.00    10.00       1.66 -999.99    1.66    0.00000     0.00  LINEAR    4.81516E-02     4.59    0.00000E+00     0.00
  -75.00    10.00       1.48 -999.99    1.48    0.00000     0.00  LINEAR    4.71647E-02     7.66    0.00000E+00     0.00
  -70.00    10.00       1.22 -999.99    1.22    0.00000     0.00  LINEAR    4.57999E-02    10.66    0.00000E+00     0.00
  -65.00    10.00       0.89 -999.99    0.89    0.00000     0.00  LINEAR    4.40731E-02    13.56    0.00000E+00     0.00
  -60.00    10.00       0.47 -999.99    0.47    0.00000     0.00  LINEAR    4.20040E-02    16.35    0.00000E+00     0.00
  -55.00    10.00      -0.04 -999.99   -0.04    0.00000     0.00  LINEAR    3.96156E-02    19.00    0.00000E+00     0.00
  -50.00    10.00      -0.65 -999.99   -0.65    0.00000     0.00  LINEAR    3.69329E-02    21.50    0.00000E+00     0.00
  -45.00    10.00      -1.37 -999.99   -1.37    0.00000     0.00  LINEAR    3.39828E-02    23.82    0.00000E+00     0.00
  -40.00    10.00      -2.23 -999.99   -2.23    0.00000     0.00  LINEAR    3.07932E-02    25.94    0.00000E+00     0.00
  -35.00    10.00      -3.24 -999.99   -3.24    0.00000     0.00  LINEAR    2.73927E-02    27.85    0.00000E+00     0.00
  -30.00    10.00      -4.46 -999.99   -4.46    0.00000     0.00  LINEAR    2.38095E-02    29.54    0.00000E+00     0.00
  -25.00    10.00      -5.94 -999.99   -5.94    0.00000     0.00  LINEAR    2.00718E-02    31.00    0.00000E+00     0.00
  -20.00    10.00      -7.80 -999.99   -7.80    0.00000     0.00  LINEAR    1.62070E-02    32.20    0.00000E+00     0.00
  -15.00    10.00     -10.24 -999.99  -10.24    0.00000     0.00  LINEAR    1.22419E-02    33.14    0.00000E+00     0.00
  -10.00    10.00     -13.72 -999.99  -13.72    0.00000     0.00  LINEAR    8.20221E-03    33.83    0.00000E+00     0.00
   -5.00    10.00     -19.71 -999.99  -19.71    0.00000     0.00  LINEAR    4.11335E-03    34.24    0.00000E+00     0.00
    0.00    10.00    -999.99 -999.99 -999.99    0.00000     0.00            0.00000E+00     0.00    0.00000E+00     0.00
 -180.00    15.00    -999.99 -999.99 -999.99    0.00000     0.00            4.81580E-13   142.32    0.00000E+00     0.00
 -175.00    15.00     -19.71 -999.99  -19.71    0.00000     0.00  LINEAR    4.11335E-03   -37.54    0.00000E+00     0.00
 -170.00    15.00     -13.72 -999.99  -13.72    0.00000     0.00  LINEAR    8.20221E-03   -37.13    0.00000E+00     0.00
